
**** 04/11/21 02:40:00 ********* PSpice 9.2 (Mar 2000) ******** ID# 0 ********

 * C:\Users\Ishan's PC\Desktop\Sem 4\Projects\LIC\Innovative Project\HighPass\HPF.sch


 ****     CIRCUIT DESCRIPTION


******************************************************************************




* Schematics Version 9.2
* Wed Mar 24 20:27:10 2021



** Analysis setup **
.ac DEC 10 0.1 1Meg


* From [PSPICE NETLIST] section of C:\Program Files\Orcad\PSpice\PSpice.ini:
.lib "nom.lib"

.INC "HPF.net"



**** INCLUDING HPF.net ****
* Schematics Netlist *



R_R3         0 Vo  1k  
R_R2         0 $N_0001  1k  
V_V2         V+ 0 12v
V_V3         0 V- 12v
R_R1         $N_0001 Vo  10k  
V_V1         Vi 0 DC 0V AC 500mv 
X_U2         $N_0001 $N_0002 V+ V- Vo LM741
C_C1         $N_0002 Vi  100n  
R_R4         $N_0002 0  10k  

**** RESUMING HPF.cir ****
.PROBE V(*) I(*) W(*) D(*) NOISE(*) 


.END

**** 04/11/21 02:40:00 ********* PSpice 9.2 (Mar 2000) ******** ID# 0 ********

 * C:\Users\Ishan's PC\Desktop\Sem 4\Projects\LIC\Innovative Project\HighPass\HPF.sch


 ****     Diode MODEL PARAMETERS


******************************************************************************




               X_U2.x_lm741.dx X_U2.x_lm741.dy 
          IS  800.000000E-18  800.000000E-18 
          RS    1               1.000000E-03 
         CJO                   10.000000E-12 


**** 04/11/21 02:40:00 ********* PSpice 9.2 (Mar 2000) ******** ID# 0 ********

 * C:\Users\Ishan's PC\Desktop\Sem 4\Projects\LIC\Innovative Project\HighPass\HPF.sch


 ****     BJT MODEL PARAMETERS


******************************************************************************




               X_U2.x_lm741.qx 
               NPN             
          IS  800.000000E-18 
          BF   93.75         
          NF    1            
          BR    1            
          NR    1            
          CN    2.42         
           D     .87         


**** 04/11/21 02:40:00 ********* PSpice 9.2 (Mar 2000) ******** ID# 0 ********

 * C:\Users\Ishan's PC\Desktop\Sem 4\Projects\LIC\Innovative Project\HighPass\HPF.sch


 ****     SMALL SIGNAL BIAS SOLUTION       TEMPERATURE =   27.000 DEG C


******************************************************************************



 NODE   VOLTAGE     NODE   VOLTAGE     NODE   VOLTAGE     NODE   VOLTAGE


(   V+)   12.0000  (   V-)  -12.0000  (   Vi)    0.0000  (   Vo)    -.0082      

($N_0001)-817.0E-06                   ($N_0002)-797.6E-06                       

(X_U2.x_lm741.6) 899.5E-09            (X_U2.x_lm741.7)    -.0086                

(X_U2.x_lm741.8)    -.0086            (X_U2.x_lm741.9)    0.0000                

(X_U2.x_lm741.10)    -.6085           (X_U2.x_lm741.11)   11.9600               

(X_U2.x_lm741.12)   11.9600           (X_U2.x_lm741.13)    -.5946               

(X_U2.x_lm741.14)    -.5946           (X_U2.x_lm741.53)   11.0000               

(X_U2.x_lm741.54)  -11.0000           (X_U2.x_lm741.90)    -.0089               

(X_U2.x_lm741.91)   40.0000           (X_U2.x_lm741.92)  -40.0000               

(X_U2.x_lm741.99)    0.0000           




    VOLTAGE SOURCE CURRENTS
    NAME         CURRENT

    V_V2        -1.337E-03
    V_V3        -1.337E-03
    V_V1         0.000E+00
    X_U2.x_lm741.vb   8.995E-12
    X_U2.x_lm741.vc   1.101E-11
    X_U2.x_lm741.ve   1.091E-11
    X_U2.x_lm741.vlim  -8.927E-06
    X_U2.x_lm741.vlp  -4.001E-11
    X_U2.x_lm741.vln  -3.999E-11

    TOTAL POWER DISSIPATION   3.21E-02  WATTS



          JOB CONCLUDED

          TOTAL JOB TIME             .02
